# tracer: nop
#
# entries-in-buffer/entries-written: 1612/1612   #P:4
#
#                                _-----=> irqs-off
#                               / _----=> need-resched
#                              | / _---=> hardirq/softirq
#                              || / _--=> preempt-depth
#                              ||| /     delay
#           TASK-PID     CPU#  ||||   TIMESTAMP  FUNCTION
#              | |         |   ||||      |         |
          python-2025    [003] ....  6237.978264: i2c_write: i2c-1 #0 a=039 f=0000 l=0 []
          python-2025    [003] ....  6237.978439: i2c_result: i2c-1 n=1 ret=1
          python-2025    [003] ....  6237.979009: i2c_write: i2c-1 #0 a=039 f=0200 l=1 [92]    READ 0x2 DEVICE ID 
          python-2025    [003] ....  6237.979012: i2c_read: i2c-1 #1 a=039 f=0201 l=1
          python-2025    [003] ....  6237.979460: i2c_reply: i2c-1 #1 a=039 f=0201 l=1 [24]    REPLY 0x24 
          python-2025    [003] ....  6237.979463: i2c_result: i2c-1 n=2 ret=2
          python-2025    [003] ....  6237.979747: i2c_write: i2c-1 #0 a=039 f=0200 l=1 [80]    READ 0x80 ENABLE REG
          python-2025    [003] ....  6237.979749: i2c_read: i2c-1 #1 a=039 f=0201 l=1
          python-2025    [003] ....  6237.980187: i2c_reply: i2c-1 #1 a=039 f=0201 l=1 [03]    ENABLE REG 0x03 SP_EN 1 PON 1
          python-2025    [003] ....  6237.980189: i2c_result: i2c-1 n=2 ret=2
          python-2025    [003] ....  6237.980308: i2c_write: i2c-1 #0 a=039 f=0000 l=2 [80-03]
          python-2025    [003] ....  6237.980633: i2c_result: i2c-1 n=1 ret=1
          python-2025    [003] ....  6237.980790: i2c_write: i2c-1 #0 a=039 f=0200 l=1 [a9]    READ 0xA9  CFG0 LOW POWER
          python-2025    [003] ....  6237.980792: i2c_read: i2c-1 #1 a=039 f=0201 l=1
          python-2025    [003] ....  6237.981225: i2c_reply: i2c-1 #1 a=039 f=0201 l=1 [40]    REPLY 0x40
          python-2025    [003] ....  6237.981227: i2c_result: i2c-1 n=2 ret=2
          python-2025    [003] ....  6237.981311: i2c_write: i2c-1 #0 a=039 f=0000 l=2 [a9-50] write 0x50 to A9???
          python-2025    [003] ....  6237.981635: i2c_result: i2c-1 n=1 ret=1
          python-2025    [003] ....  6237.981832: i2c_write: i2c-1 #0 a=039 f=0200 l=1 [70]    READ 0x70 
          python-2025    [003] ....  6237.981834: i2c_read: i2c-1 #1 a=039 f=0201 l=1
          python-2025    [003] ....  6237.982270: i2c_reply: i2c-1 #1 a=039 f=0201 l=1 [08]    reply 08
          python-2025    [003] ....  6237.982271: i2c_result: i2c-1 n=2 ret=2
          python-2025    [003] ....  6237.982357: i2c_write: i2c-1 #0 a=039 f=0000 l=2 [70-08] WRITE 0x70 08
          python-2025    [003] ....  6237.982680: i2c_result: i2c-1 n=1 ret=1
          python-2025    [003] ....  6237.982824: i2c_write: i2c-1 #0 a=039 f=0200 l=1 [a9]  READ A9
          python-2025    [003] ....  6237.982826: i2c_read: i2c-1 #1 a=039 f=0201 l=1
          python-2025    [003] ....  6237.983259: i2c_reply: i2c-1 #1 a=039 f=0201 l=1 [50]  50
          python-2025    [003] ....  6237.983261: i2c_result: i2c-1 n=2 ret=2
          python-2025    [003] ....  6237.983347: i2c_write: i2c-1 #0 a=039 f=0000 l=2 [a9-40] set cfg0 A9 to 0x40??
          python-2025    [003] ....  6237.983670: i2c_result: i2c-1 n=1 ret=1
          python-2025    [003] ....  6237.983803: i2c_write: i2c-1 #0 a=039 f=0000 l=2 [81-64] 0x81 64   ATIME 64
          python-2025    [003] ....  6237.984126: i2c_result: i2c-1 n=1 ret=1
          python-2025    [003] ....  6237.984215: i2c_write: i2c-1 #0 a=039 f=0000 l=3 [ca-e7-03]  ASTEP double write ptr
          python-2025    [003] ....  6237.984629: i2c_result: i2c-1 n=1 ret=1
          python-2025    [003] ....  6237.984731: i2c_write: i2c-1 #0 a=039 f=0000 l=2 [aa-08] 0xAA gain 128x
          python-2025    [003] ....  6237.985056: i2c_result: i2c-1 n=1 ret=1
          python-2025    [003] ....  6237.985263: i2c_write: i2c-1 #0 a=039 f=0200 l=1 [80]    check 0x80
          python-2025    [003] ....  6237.985265: i2c_read: i2c-1 #1 a=039 f=0201 l=1
          python-2025    [003] ....  6237.985744: i2c_reply: i2c-1 #1 a=039 f=0201 l=1 [03]    SP_EN 1 PON 1
          python-2025    [003] ....  6237.985745: i2c_result: i2c-1 n=2 ret=2
          python-2025    [003] ....  6237.985834: i2c_write: i2c-1 #0 a=039 f=0000 l=2 [80-01] disable SP_EN
          python-2025    [003] ....  6237.986157: i2c_result: i2c-1 n=1 ret=1
          python-2025    [003] ....  6237.986327: i2c_write: i2c-1 #0 a=039 f=0200 l=1 [af]    read 0xAF
          python-2025    [003] ....  6237.986329: i2c_read: i2c-1 #1 a=039 f=0201 l=1
          python-2025    [003] ....  6237.986763: i2c_reply: i2c-1 #1 a=039 f=0201 l=1 [10]   reply 0x10
          python-2025    [003] ....  6237.986764: i2c_result: i2c-1 n=2 ret=2
          python-2025    [003] ....  6237.986868: i2c_write: i2c-1 #0 a=039 f=0000 l=2 [af-10] write AF-10 SET SMUX_CMD
          python-2025    [003] ....  6237.987192: i2c_result: i2c-1 n=1 ret=1
          python-2025    [003] ....  6237.987286: i2c_write: i2c-1 #0 a=039 f=0000 l=2 [00-30] ... begin writing SMUX
          python-2025    [003] ....  6237.987610: i2c_result: i2c-1 n=1 ret=1
          python-2025    [003] ....  6237.987690: i2c_write: i2c-1 #0 a=039 f=0000 l=2 [01-01]
          python-2025    [003] ....  6237.988014: i2c_result: i2c-1 n=1 ret=1
          python-2025    [003] ....  6237.988093: i2c_write: i2c-1 #0 a=039 f=0000 l=2 [02-00]
          python-2025    [003] ....  6237.988417: i2c_result: i2c-1 n=1 ret=1
          python-2025    [003] ....  6237.988494: i2c_write: i2c-1 #0 a=039 f=0000 l=2 [03-00]
          python-2025    [003] ....  6237.988817: i2c_result: i2c-1 n=1 ret=1
          python-2025    [003] ....  6237.988894: i2c_write: i2c-1 #0 a=039 f=0000 l=2 [04-00]
          python-2025    [003] ....  6237.989219: i2c_result: i2c-1 n=1 ret=1
          python-2025    [003] ....  6237.989299: i2c_write: i2c-1 #0 a=039 f=0000 l=2 [05-42]
          python-2025    [003] ....  6237.989622: i2c_result: i2c-1 n=1 ret=1
          python-2025    [003] ....  6237.989740: i2c_write: i2c-1 #0 a=039 f=0000 l=2 [06-00]
          python-2025    [003] ....  6237.990064: i2c_result: i2c-1 n=1 ret=1
          python-2025    [003] ....  6237.990143: i2c_write: i2c-1 #0 a=039 f=0000 l=2 [07-00]
          python-2025    [003] ....  6237.990467: i2c_result: i2c-1 n=1 ret=1
          python-2025    [003] ....  6237.990548: i2c_write: i2c-1 #0 a=039 f=0000 l=2 [08-50]
          python-2025    [003] ....  6237.990870: i2c_result: i2c-1 n=1 ret=1
          python-2025    [003] ....  6237.990947: i2c_write: i2c-1 #0 a=039 f=0000 l=2 [09-00]
          python-2025    [003] ....  6237.991271: i2c_result: i2c-1 n=1 ret=1
          python-2025    [003] ....  6237.991349: i2c_write: i2c-1 #0 a=039 f=0000 l=2 [0a-00]
          python-2025    [003] ....  6237.991672: i2c_result: i2c-1 n=1 ret=1
          python-2025    [003] ....  6237.991750: i2c_write: i2c-1 #0 a=039 f=0000 l=2 [0b-00]
          python-2025    [003] ....  6237.992073: i2c_result: i2c-1 n=1 ret=1
          python-2025    [003] ....  6237.992152: i2c_write: i2c-1 #0 a=039 f=0000 l=2 [0c-20]
          python-2025    [003] ....  6237.992475: i2c_result: i2c-1 n=1 ret=1
          python-2025    [003] ....  6237.992552: i2c_write: i2c-1 #0 a=039 f=0000 l=2 [0d-04]
          python-2025    [003] ....  6237.992875: i2c_result: i2c-1 n=1 ret=1
          python-2025    [003] ....  6237.992952: i2c_write: i2c-1 #0 a=039 f=0000 l=2 [0e-00]
          python-2025    [003] ....  6237.993276: i2c_result: i2c-1 n=1 ret=1
          python-2025    [003] ....  6237.993354: i2c_write: i2c-1 #0 a=039 f=0000 l=2 [0f-30]
          python-2025    [003] ....  6237.993677: i2c_result: i2c-1 n=1 ret=1
          python-2025    [003] ....  6237.993790: i2c_write: i2c-1 #0 a=039 f=0000 l=2 [10-01]
          python-2025    [003] ....  6237.994118: i2c_result: i2c-1 n=1 ret=1
          python-2025    [003] ....  6237.994195: i2c_write: i2c-1 #0 a=039 f=0000 l=2 [11-50]
          python-2025    [003] ....  6237.994523: i2c_result: i2c-1 n=1 ret=1
          python-2025    [003] ....  6237.994600: i2c_write: i2c-1 #0 a=039 f=0000 l=2 [12-00]
          python-2025    [003] ....  6237.994927: i2c_result: i2c-1 n=1 ret=1
          python-2025    [003] ....  6237.995006: i2c_write: i2c-1 #0 a=039 f=0000 l=2 [13-06]
          python-2025    [003] ....  6237.995333: i2c_result: i2c-1 n=1 ret=1
          python-2025    [003] ....  6237.995507: i2c_write: i2c-1 #0 a=039 f=0200 l=1 [a9]
          python-2025    [003] ....  6237.995509: i2c_read: i2c-1 #1 a=039 f=0201 l=1
          python-2025    [003] ....  6237.995946: i2c_reply: i2c-1 #1 a=039 f=0201 l=1 [40]
          python-2025    [003] ....  6237.995948: i2c_result: i2c-1 n=2 ret=2
          python-2025    [003] ....  6237.996035: i2c_write: i2c-1 #0 a=039 f=0000 l=2 [a9-40]
          python-2025    [003] ....  6237.996362: i2c_result: i2c-1 n=1 ret=1
          python-2025    [003] ....  6237.996547: i2c_write: i2c-1 #0 a=039 f=0200 l=1 [80]
          python-2025    [003] ....  6237.996549: i2c_read: i2c-1 #1 a=039 f=0201 l=1
          python-2025    [003] ....  6237.996986: i2c_reply: i2c-1 #1 a=039 f=0201 l=1 [01]
          python-2025    [003] ....  6237.996988: i2c_result: i2c-1 n=2 ret=2
          python-2025    [003] ....  6237.997071: i2c_write: i2c-1 #0 a=039 f=0000 l=2 [80-11]
          python-2025    [003] ....  6237.997398: i2c_result: i2c-1 n=1 ret=1
          python-2025    [003] ....  6237.997561: i2c_write: i2c-1 #0 a=039 f=0200 l=1 [80]
          python-2025    [003] ....  6237.997563: i2c_read: i2c-1 #1 a=039 f=0201 l=1
          python-2025    [003] ....  6237.998004: i2c_reply: i2c-1 #1 a=039 f=0201 l=1 [01]
          python-2025    [003] ....  6237.998006: i2c_result: i2c-1 n=2 ret=2
          python-2025    [003] ....  6237.998162: i2c_write: i2c-1 #0 a=039 f=0200 l=1 [80]
          python-2025    [003] ....  6237.998164: i2c_read: i2c-1 #1 a=039 f=0201 l=1
          python-2025    [003] ....  6237.998602: i2c_reply: i2c-1 #1 a=039 f=0201 l=1 [01]
          python-2025    [003] ....  6237.998603: i2c_result: i2c-1 n=2 ret=2
          python-2025    [003] ....  6237.998686: i2c_write: i2c-1 #0 a=039 f=0000 l=2 [80-03]
          python-2025    [003] ....  6237.999013: i2c_result: i2c-1 n=1 ret=1
          python-2025    [003] ....  6237.999168: i2c_write: i2c-1 #0 a=039 f=0200 l=1 [a3]
          python-2025    [003] ....  6237.999170: i2c_read: i2c-1 #1 a=039 f=0201 l=1
          python-2025    [003] ....  6237.999607: i2c_reply: i2c-1 #1 a=039 f=0201 l=1 [00]
          python-2025    [003] ....  6237.999609: i2c_result: i2c-1 n=2 ret=2
          python-2025    [003] ....  6238.000875: i2c_write: i2c-1 #0 a=039 f=0200 l=1 [a3]
          python-2025    [003] ....  6238.000876: i2c_read: i2c-1 #1 a=039 f=0201 l=1
          python-2025    [003] ....  6238.001313: i2c_reply: i2c-1 #1 a=039 f=0201 l=1 [00]
          python-2025    [003] ....  6238.001315: i2c_result: i2c-1 n=2 ret=2
          python-2025    [003] ....  6238.002554: i2c_write: i2c-1 #0 a=039 f=0200 l=1 [a3]
          python-2025    [003] ....  6238.002555: i2c_read: i2c-1 #1 a=039 f=0201 l=1
          python-2025    [003] ....  6238.002992: i2c_reply: i2c-1 #1 a=039 f=0201 l=1 [00]
          python-2025    [003] ....  6238.002994: i2c_result: i2c-1 n=2 ret=2
          python-2025    [003] ....  6238.004249: i2c_write: i2c-1 #0 a=039 f=0200 l=1 [a3]
          python-2025    [003] ....  6238.004251: i2c_read: i2c-1 #1 a=039 f=0201 l=1
          python-2025    [003] ....  6238.004687: i2c_reply: i2c-1 #1 a=039 f=0201 l=1 [00]
          python-2025    [003] ....  6238.004689: i2c_result: i2c-1 n=2 ret=2
          python-2025    [003] ....  6238.005926: i2c_write: i2c-1 #0 a=039 f=0200 l=1 [a3]
          python-2025    [003] ....  6238.005928: i2c_read: i2c-1 #1 a=039 f=0201 l=1
          python-2025    [003] ....  6238.006364: i2c_reply: i2c-1 #1 a=039 f=0201 l=1 [00]
          python-2025    [003] ....  6238.006366: i2c_result: i2c-1 n=2 ret=2
          python-2025    [003] ....  6238.007600: i2c_write: i2c-1 #0 a=039 f=0200 l=1 [a3]
          python-2025    [003] ....  6238.007602: i2c_read: i2c-1 #1 a=039 f=0201 l=1
          python-2025    [003] ....  6238.008040: i2c_reply: i2c-1 #1 a=039 f=0201 l=1 [00]
          python-2025    [003] ....  6238.008041: i2c_result: i2c-1 n=2 ret=2
          python-2025    [003] ....  6238.009276: i2c_write: i2c-1 #0 a=039 f=0200 l=1 [a3]
          python-2025    [003] ....  6238.009278: i2c_read: i2c-1 #1 a=039 f=0201 l=1
          python-2025    [003] ....  6238.009715: i2c_reply: i2c-1 #1 a=039 f=0201 l=1 [00]
          python-2025    [003] ....  6238.009717: i2c_result: i2c-1 n=2 ret=2
          python-2025    [003] ....  6238.010952: i2c_write: i2c-1 #0 a=039 f=0200 l=1 [a3]
          python-2025    [003] ....  6238.010954: i2c_read: i2c-1 #1 a=039 f=0201 l=1
          python-2025    [003] ....  6238.011390: i2c_reply: i2c-1 #1 a=039 f=0201 l=1 [00]
          python-2025    [003] ....  6238.011392: i2c_result: i2c-1 n=2 ret=2
          python-2025    [003] ....  6238.012628: i2c_write: i2c-1 #0 a=039 f=0200 l=1 [a3]
          python-2025    [003] ....  6238.012630: i2c_read: i2c-1 #1 a=039 f=0201 l=1
          python-2025    [003] ....  6238.013066: i2c_reply: i2c-1 #1 a=039 f=0201 l=1 [00]
          python-2025    [003] ....  6238.013068: i2c_result: i2c-1 n=2 ret=2
          python-2025    [003] ....  6238.014304: i2c_write: i2c-1 #0 a=039 f=0200 l=1 [a3]
          python-2025    [003] ....  6238.014306: i2c_read: i2c-1 #1 a=039 f=0201 l=1
          python-2025    [003] ....  6238.014742: i2c_reply: i2c-1 #1 a=039 f=0201 l=1 [00]
          python-2025    [003] ....  6238.014744: i2c_result: i2c-1 n=2 ret=2
          python-2025    [003] ....  6238.015980: i2c_write: i2c-1 #0 a=039 f=0200 l=1 [a3]
          python-2025    [003] ....  6238.015981: i2c_read: i2c-1 #1 a=039 f=0201 l=1
          python-2025    [003] ....  6238.016418: i2c_reply: i2c-1 #1 a=039 f=0201 l=1 [00]
          python-2025    [003] ....  6238.016423: i2c_result: i2c-1 n=2 ret=2
          python-2025    [003] ....  6238.017661: i2c_write: i2c-1 #0 a=039 f=0200 l=1 [a3]
          python-2025    [003] ....  6238.017663: i2c_read: i2c-1 #1 a=039 f=0201 l=1
          python-2025    [003] ....  6238.018102: i2c_reply: i2c-1 #1 a=039 f=0201 l=1 [00]
          python-2025    [003] ....  6238.018103: i2c_result: i2c-1 n=2 ret=2
          python-2025    [003] ....  6238.019355: i2c_write: i2c-1 #0 a=039 f=0200 l=1 [a3]
          python-2025    [003] ....  6238.019357: i2c_read: i2c-1 #1 a=039 f=0201 l=1
          python-2025    [003] ....  6238.019798: i2c_reply: i2c-1 #1 a=039 f=0201 l=1 [00]
          python-2025    [003] ....  6238.019799: i2c_result: i2c-1 n=2 ret=2
          python-2025    [003] ....  6238.021036: i2c_write: i2c-1 #0 a=039 f=0200 l=1 [a3]
          python-2025    [003] ....  6238.021038: i2c_read: i2c-1 #1 a=039 f=0201 l=1
          python-2025    [003] ....  6238.021475: i2c_reply: i2c-1 #1 a=039 f=0201 l=1 [00]
          python-2025    [003] ....  6238.021476: i2c_result: i2c-1 n=2 ret=2
          python-2025    [003] ....  6238.022728: i2c_write: i2c-1 #0 a=039 f=0200 l=1 [a3]
          python-2025    [003] ....  6238.022730: i2c_read: i2c-1 #1 a=039 f=0201 l=1
          python-2025    [003] ....  6238.023166: i2c_reply: i2c-1 #1 a=039 f=0201 l=1 [00]
          python-2025    [003] ....  6238.023168: i2c_result: i2c-1 n=2 ret=2
          python-2025    [003] ....  6238.024407: i2c_write: i2c-1 #0 a=039 f=0200 l=1 [a3]
          python-2025    [003] ....  6238.024409: i2c_read: i2c-1 #1 a=039 f=0201 l=1
          python-2025    [003] ....  6238.024847: i2c_reply: i2c-1 #1 a=039 f=0201 l=1 [00]
          python-2025    [003] ....  6238.024848: i2c_result: i2c-1 n=2 ret=2
          python-2025    [003] ....  6238.026086: i2c_write: i2c-1 #0 a=039 f=0200 l=1 [a3]
          python-2025    [003] ....  6238.026088: i2c_read: i2c-1 #1 a=039 f=0201 l=1
          python-2025    [003] ....  6238.026524: i2c_reply: i2c-1 #1 a=039 f=0201 l=1 [00]
          python-2025    [003] ....  6238.026525: i2c_result: i2c-1 n=2 ret=2
          python-2025    [003] ....  6238.027763: i2c_write: i2c-1 #0 a=039 f=0200 l=1 [a3]
          python-2025    [003] ....  6238.027764: i2c_read: i2c-1 #1 a=039 f=0201 l=1
          python-2025    [003] ....  6238.028201: i2c_reply: i2c-1 #1 a=039 f=0201 l=1 [00]
          python-2025    [003] ....  6238.028203: i2c_result: i2c-1 n=2 ret=2
          python-2025    [003] ....  6238.029438: i2c_write: i2c-1 #0 a=039 f=0200 l=1 [a3]
          python-2025    [003] ....  6238.029440: i2c_read: i2c-1 #1 a=039 f=0201 l=1
          python-2025    [003] ....  6238.029877: i2c_reply: i2c-1 #1 a=039 f=0201 l=1 [00]
          python-2025    [003] ....  6238.029878: i2c_result: i2c-1 n=2 ret=2
          python-2025    [003] ....  6238.031115: i2c_write: i2c-1 #0 a=039 f=0200 l=1 [a3]
          python-2025    [003] ....  6238.031117: i2c_read: i2c-1 #1 a=039 f=0201 l=1
          python-2025    [003] ....  6238.031554: i2c_reply: i2c-1 #1 a=039 f=0201 l=1 [00]
          python-2025    [003] ....  6238.031556: i2c_result: i2c-1 n=2 ret=2
          python-2025    [003] ....  6238.032790: i2c_write: i2c-1 #0 a=039 f=0200 l=1 [a3]
          python-2025    [003] ....  6238.032791: i2c_read: i2c-1 #1 a=039 f=0201 l=1
          python-2025    [003] ....  6238.033228: i2c_reply: i2c-1 #1 a=039 f=0201 l=1 [00]
          python-2025    [003] ....  6238.033230: i2c_result: i2c-1 n=2 ret=2
          python-2025    [003] ....  6238.034465: i2c_write: i2c-1 #0 a=039 f=0200 l=1 [a3]
          python-2025    [003] ....  6238.034467: i2c_read: i2c-1 #1 a=039 f=0201 l=1
          python-2025    [003] ....  6238.034904: i2c_reply: i2c-1 #1 a=039 f=0201 l=1 [00]
          python-2025    [003] ....  6238.034905: i2c_result: i2c-1 n=2 ret=2
          python-2025    [003] ....  6238.036141: i2c_write: i2c-1 #0 a=039 f=0200 l=1 [a3]
          python-2025    [003] ....  6238.036143: i2c_read: i2c-1 #1 a=039 f=0201 l=1
          python-2025    [003] ....  6238.036579: i2c_reply: i2c-1 #1 a=039 f=0201 l=1 [00]
          python-2025    [003] ....  6238.036580: i2c_result: i2c-1 n=2 ret=2
          python-2025    [003] ....  6238.037835: i2c_write: i2c-1 #0 a=039 f=0200 l=1 [a3]
          python-2025    [003] ....  6238.037837: i2c_read: i2c-1 #1 a=039 f=0201 l=1
          python-2025    [003] ....  6238.038274: i2c_reply: i2c-1 #1 a=039 f=0201 l=1 [00]
          python-2025    [003] ....  6238.038276: i2c_result: i2c-1 n=2 ret=2
          python-2025    [003] ....  6238.039511: i2c_write: i2c-1 #0 a=039 f=0200 l=1 [a3]
          python-2025    [003] ....  6238.039513: i2c_read: i2c-1 #1 a=039 f=0201 l=1
          python-2025    [003] ....  6238.039949: i2c_reply: i2c-1 #1 a=039 f=0201 l=1 [00]
          python-2025    [003] ....  6238.039951: i2c_result: i2c-1 n=2 ret=2
          python-2025    [003] ....  6238.041187: i2c_write: i2c-1 #0 a=039 f=0200 l=1 [a3]
          python-2025    [003] ....  6238.041189: i2c_read: i2c-1 #1 a=039 f=0201 l=1
          python-2025    [003] ....  6238.041626: i2c_reply: i2c-1 #1 a=039 f=0201 l=1 [00]
          python-2025    [003] ....  6238.041628: i2c_result: i2c-1 n=2 ret=2
          python-2025    [003] ....  6238.042887: i2c_write: i2c-1 #0 a=039 f=0200 l=1 [a3]
          python-2025    [003] ....  6238.042888: i2c_read: i2c-1 #1 a=039 f=0201 l=1
          python-2025    [003] ....  6238.043324: i2c_reply: i2c-1 #1 a=039 f=0201 l=1 [00]
          python-2025    [003] ....  6238.043326: i2c_result: i2c-1 n=2 ret=2
          python-2025    [003] ....  6238.044563: i2c_write: i2c-1 #0 a=039 f=0200 l=1 [a3]
          python-2025    [003] ....  6238.044564: i2c_read: i2c-1 #1 a=039 f=0201 l=1
          python-2025    [003] ....  6238.045001: i2c_reply: i2c-1 #1 a=039 f=0201 l=1 [00]
          python-2025    [003] ....  6238.045003: i2c_result: i2c-1 n=2 ret=2
          python-2025    [003] ....  6238.046256: i2c_write: i2c-1 #0 a=039 f=0200 l=1 [a3]
          python-2025    [003] ....  6238.046258: i2c_read: i2c-1 #1 a=039 f=0201 l=1
          python-2025    [003] ....  6238.046695: i2c_reply: i2c-1 #1 a=039 f=0201 l=1 [00]
          python-2025    [003] ....  6238.046697: i2c_result: i2c-1 n=2 ret=2
          python-2025    [003] ....  6238.047933: i2c_write: i2c-1 #0 a=039 f=0200 l=1 [a3]
          python-2025    [003] ....  6238.047935: i2c_read: i2c-1 #1 a=039 f=0201 l=1
          python-2025    [003] ....  6238.048371: i2c_reply: i2c-1 #1 a=039 f=0201 l=1 [00]
          python-2025    [003] ....  6238.048373: i2c_result: i2c-1 n=2 ret=2
          python-2025    [003] ....  6238.049624: i2c_write: i2c-1 #0 a=039 f=0200 l=1 [a3]
          python-2025    [003] ....  6238.049625: i2c_read: i2c-1 #1 a=039 f=0201 l=1
          python-2025    [003] ....  6238.050063: i2c_reply: i2c-1 #1 a=039 f=0201 l=1 [00]
          python-2025    [003] ....  6238.050065: i2c_result: i2c-1 n=2 ret=2
          python-2025    [003] ....  6238.051305: i2c_write: i2c-1 #0 a=039 f=0200 l=1 [a3]
          python-2025    [003] ....  6238.051307: i2c_read: i2c-1 #1 a=039 f=0201 l=1
          python-2025    [003] ....  6238.051744: i2c_reply: i2c-1 #1 a=039 f=0201 l=1 [00]
          python-2025    [003] ....  6238.051745: i2c_result: i2c-1 n=2 ret=2
          python-2025    [003] ....  6238.052982: i2c_write: i2c-1 #0 a=039 f=0200 l=1 [a3]
          python-2025    [003] ....  6238.052984: i2c_read: i2c-1 #1 a=039 f=0201 l=1
          python-2025    [003] ....  6238.053420: i2c_reply: i2c-1 #1 a=039 f=0201 l=1 [00]
          python-2025    [003] ....  6238.053422: i2c_result: i2c-1 n=2 ret=2
          python-2025    [003] ....  6238.054658: i2c_write: i2c-1 #0 a=039 f=0200 l=1 [a3]
          python-2025    [003] ....  6238.054660: i2c_read: i2c-1 #1 a=039 f=0201 l=1
          python-2025    [003] ....  6238.055097: i2c_reply: i2c-1 #1 a=039 f=0201 l=1 [00]
          python-2025    [003] ....  6238.055099: i2c_result: i2c-1 n=2 ret=2
          python-2025    [003] ....  6238.056335: i2c_write: i2c-1 #0 a=039 f=0200 l=1 [a3]
          python-2025    [003] ....  6238.056337: i2c_read: i2c-1 #1 a=039 f=0201 l=1
          python-2025    [003] ....  6238.056773: i2c_reply: i2c-1 #1 a=039 f=0201 l=1 [00]
          python-2025    [003] ....  6238.056775: i2c_result: i2c-1 n=2 ret=2
          python-2025    [003] ....  6238.058011: i2c_write: i2c-1 #0 a=039 f=0200 l=1 [a3]
          python-2025    [003] ....  6238.058013: i2c_read: i2c-1 #1 a=039 f=0201 l=1
          python-2025    [003] ....  6238.058450: i2c_reply: i2c-1 #1 a=039 f=0201 l=1 [00]
          python-2025    [003] ....  6238.058452: i2c_result: i2c-1 n=2 ret=2
          python-2025    [003] ....  6238.059688: i2c_write: i2c-1 #0 a=039 f=0200 l=1 [a3]
          python-2025    [003] ....  6238.059690: i2c_read: i2c-1 #1 a=039 f=0201 l=1
          python-2025    [003] ....  6238.060126: i2c_reply: i2c-1 #1 a=039 f=0201 l=1 [00]
          python-2025    [003] ....  6238.060128: i2c_result: i2c-1 n=2 ret=2
          python-2025    [003] ....  6238.061378: i2c_write: i2c-1 #0 a=039 f=0200 l=1 [a3]
          python-2025    [003] ....  6238.061380: i2c_read: i2c-1 #1 a=039 f=0201 l=1
          python-2025    [003] ....  6238.061817: i2c_reply: i2c-1 #1 a=039 f=0201 l=1 [00]
          python-2025    [003] ....  6238.061819: i2c_result: i2c-1 n=2 ret=2
          python-2025    [003] ....  6238.063071: i2c_write: i2c-1 #0 a=039 f=0200 l=1 [a3]
          python-2025    [003] ....  6238.063072: i2c_read: i2c-1 #1 a=039 f=0201 l=1
          python-2025    [003] ....  6238.063510: i2c_reply: i2c-1 #1 a=039 f=0201 l=1 [00]
          python-2025    [003] ....  6238.063512: i2c_result: i2c-1 n=2 ret=2
          python-2025    [003] ....  6238.064750: i2c_write: i2c-1 #0 a=039 f=0200 l=1 [a3]
          python-2025    [003] ....  6238.064752: i2c_read: i2c-1 #1 a=039 f=0201 l=1
          python-2025    [003] ....  6238.065188: i2c_reply: i2c-1 #1 a=039 f=0201 l=1 [00]
          python-2025    [003] ....  6238.065190: i2c_result: i2c-1 n=2 ret=2
          python-2025    [003] ....  6238.066429: i2c_write: i2c-1 #0 a=039 f=0200 l=1 [a3]
          python-2025    [003] ....  6238.066430: i2c_read: i2c-1 #1 a=039 f=0201 l=1
          python-2025    [003] ....  6238.066868: i2c_reply: i2c-1 #1 a=039 f=0201 l=1 [00]
          python-2025    [003] ....  6238.066869: i2c_result: i2c-1 n=2 ret=2
          python-2025    [003] ....  6238.068106: i2c_write: i2c-1 #0 a=039 f=0200 l=1 [a3]
          python-2025    [003] ....  6238.068108: i2c_read: i2c-1 #1 a=039 f=0201 l=1
          python-2025    [003] ....  6238.068545: i2c_reply: i2c-1 #1 a=039 f=0201 l=1 [00]
